#Parameters = {ls=80; ws=30; h=1.6; wl=2; i=0.8; l1=15.30612244898; e=0.035; l2=14.75}
#"Frequency / GHz"	"S1,1 (l2=14.75) [Mag]"	"S1,1 (l2=14.75) [Pha in deg.]"	"Ref.Imp. [Mag]"	"Ref.Imp. [Pha in deg.]"
#-------------------------------------------------------------------------------------------------------------------
0.0000000000000	0.99631470441818	-0.0000000000000	50.000000000000	0.0000000000000
0.0040000001899898	0.99631890257863	-0.082750407030405	50.000000000000	0.0000000000000
0.0080000003799796	0.99633161811814	-0.16553660577313	50.000000000000	0.0000000000000
0.012000000104308	0.99635297577840	-0.24839415035500	50.000000000000	0.0000000000000
0.016000000759959	0.99638238870691	-0.33135846411101	50.000000000000	0.0000000000000
0.019999999552965	0.99642004850318	-0.41446426641613	50.000000000000	0.0000000000000
0.024000000208616	0.99646585226753	-0.49774566839803	50.000000000000	0.0000000000000
0.028000000864267	0.99651940251706	-0.58123611999489	50.000000000000	0.0000000000000
0.032000001519918	0.99658042426230	-0.66496793245790	50.000000000000	0.0000000000000
0.035999998450279	0.99664870533311	-0.74897251193147	50.000000000000	0.0000000000000
0.039999999105930	0.99672403654362	-0.83327982004714	50.000000000000	0.0000000000000
0.043999999761581	0.99680573466650	-0.91791849026744	50.000000000000	0.0000000000000
0.048000000417233	0.99689365567578	-1.0029158668036	50.000000000000	0.0000000000000
0.052000001072884	0.99698735987327	-1.0882974557019	50.000000000000	0.0000000000000
0.056000001728535	0.99708640964196	-1.1740867015846	50.000000000000	0.0000000000000
0.059999998658895	0.99719019073651	-1.2603060172492	50.000000000000	0.0000000000000
0.064000003039837	0.99729826917492	-1.3469750954708	50.000000000000	0.0000000000000
0.068000003695488	0.99741021260459	-1.4341121608419	50.000000000000	0.0000000000000
0.071999996900558	0.99752553004863	-1.5217329930785	50.000000000000	0.0000000000000
0.075999997556210	0.99764343322100	-1.6098512340383	50.000000000000	0.0000000000000
0.079999998211861	0.99776343264641	-1.6984786850265	50.000000000000	0.0000000000000
0.083999998867512	0.99788521768099	-1.7876243231243	50.000000000000	0.0000000000000
0.087999999523163	0.99800782181227	-1.8772952603031	50.000000000000	0.0000000000000
0.092000000178814	0.99813099366522	-1.9674962644465	50.000000000000	0.0000000000000
0.096000000834465	0.99825394383290	-2.0582289230711	50.000000000000	0.0000000000000
0.10000000149012	0.99837606191757	-2.1494945191911	50.000000000000	0.0000000000000
0.10400000214577	0.99849679400078	-2.2412893082882	50.000000000000	0.0000000000000
0.10800000280142	0.99861576467418	-2.3336093456490	50.000000000000	0.0000000000000
0.11200000345707	0.99873211908672	-2.4264481554396	50.000000000000	0.0000000000000
0.11599999666214	0.99884547646979	-2.5197960474291	50.000000000000	0.0000000000000
0.11999999731779	0.99895521529898	-2.6136419844092	50.000000000000	0.0000000000000
0.12399999797344	0.99906088984190	-2.7079725675515	50.000000000000	0.0000000000000
0.12800000607967	0.99916181231857	-2.8027722731120	50.000000000000	0.0000000000000
0.13199999928474	0.99925764991669	-2.8980241888379	50.000000000000	0.0000000000000
0.13600000739098	0.99934794621676	-2.9937089283024	50.000000000000	0.0000000000000
0.14000000059605	0.99943218111692	-3.0898053604344	50.000000000000	0.0000000000000
0.14399999380112	0.99951000962142	-3.1862909477326	50.000000000000	0.0000000000000
0.14800000190735	0.99958108242752	-3.2831416096134	50.000000000000	0.0000000000000
0.15199999511242	0.99964468777368	-3.3803320802849	50.000000000000	0.0000000000000
0.15600000321865	0.99970130283925	-3.4778351721912	50.000000000000	0.0000000000000
0.15999999642372	0.99974996753752	-3.5756228974567	50.000000000000	0.0000000000000
0.16400000452995	0.99979061374480	-3.6736671550681	50.000000000000	0.0000000000000
0.16799999773502	0.99982316622797	-3.7719366979967	50.000000000000	0.0000000000000
0.17200000584126	0.99984730829566	-3.8704014642354	50.000000000000	0.0000000000000
0.17599999904633	0.99986301813990	-3.9690314165854	50.000000000000	0.0000000000000
0.18000000715256	0.99987008762430	-4.0677938608170	50.000000000000	0.0000000000000
0.18400000035763	0.99986872337766	-4.1666565883138	50.000000000000	0.0000000000000
0.18799999356270	0.99985877135998	-4.2655888411227	50.000000000000	0.0000000000000
0.19200000166893	0.99984007140348	-4.3645582242464	50.000000000000	0.0000000000000
0.19599999487400	0.99981311757628	-4.4635328888954	50.000000000000	0.0000000000000
0.20000000298023	0.99977756456135	-4.5624820391674	50.000000000000	0.0000000000000
0.20399999618530	0.99973395913155	-4.6613742515716	50.000000000000	0.0000000000000
0.20800000429153	0.99968213008555	-4.7601804290326	50.000000000000	0.0000000000000
0.21199999749660	0.99962267906795	-4.8588707482470	50.000000000000	0.0000000000000
0.21600000560284	0.99955566826850	-4.9574169411313	50.000000000000	0.0000000000000
0.21999999880791	0.99948163593645	-5.0557912686401	50.000000000000	0.0000000000000
0.22400000691414	0.99940058126790	-5.1539676740205	50.000000000000	0.0000000000000
0.22800000011921	0.99931292664086	-5.2519246979334	50.000000000000	0.0000000000000
0.23199999332428	0.99921938225918	-5.3496352743867	50.000000000000	0.0000000000000
0.23600000143051	0.99912018742536	-5.4470788860211	50.000000000000	0.0000000000000
0.23999999463558	0.99901576270134	-5.5442373123961	50.000000000000	0.0000000000000
0.24400000274181	0.99890664656246	-5.6410923266596	50.000000000000	0.0000000000000
0.24799999594688	0.99879331974314	-5.7376279396564	50.000000000000	0.0000000000000
0.25200000405312	0.99867656364775	-5.8338296196329	50.000000000000	0.0000000000000
0.25600001215935	0.99855656591921	-5.9296864725377	50.000000000000	0.0000000000000
0.25999999046326	0.99843405662766	-6.0251898108018	50.000000000000	0.0000000000000
0.26399999856949	0.99830964477545	-6.1203305306629	50.000000000000	0.0000000000000
0.26800000667572	0.99818376869439	-6.2151046438079	50.000000000000	0.0000000000000
0.27200001478195	0.99805723082077	-6.3095104038940	50.000000000000	0.0000000000000
0.27599999308586	0.99793053400587	-6.4035459598262	50.000000000000	0.0000000000000
0.28000000119209	0.99780425287670	-6.4972152520560	50.000000000000	0.0000000000000
0.28400000929832	0.99767896263518	-6.5905220015875	50.000000000000	0.0000000000000
0.28799998760223	0.99755542617520	-6.6834731917717	50.000000000000	0.0000000000000
0.29199999570847	0.99743405482385	-6.7760792212032	50.000000000000	0.0000000000000
0.29600000381470	0.99731562073905	-6.8683500070047	50.000000000000	0.0000000000000
0.30000001192093	0.99720054956295	-6.9603010745738	50.000000000000	0.0000000000000
0.30399999022484	0.99708938987006	-7.0519482340332	50.000000000000	0.0000000000000
0.30799999833107	0.99698281968605	-7.1433104992717	50.000000000000	0.0000000000000
0.31200000643730	0.99688122175814	-7.2344079539017	50.000000000000	0.0000000000000
0.31600001454353	0.99678516899879	-7.3252639150989	50.000000000000	0.0000000000000
0.31999999284744	0.99669500156252	-7.4159036976262	50.000000000000	0.0000000000000
0.32400000095367	0.99661124564111	-7.5063537106362	50.000000000000	0.0000000000000
0.32800000905991	0.99653448953045	-7.5966397320464	50.000000000000	0.0000000000000
0.33199998736382	0.99646480281595	-7.6867957097562	50.000000000000	0.0000000000000
0.33599999547005	0.99640278841093	-7.7768505562537	50.000000000000	0.0000000000000
0.34000000357628	0.99634858626903	-7.8668392756983	50.000000000000	0.0000000000000
0.34400001168251	0.99630245628167	-7.9567950335116	50.000000000000	0.0000000000000
0.34799998998642	0.99626490648811	-8.0467523830748	50.000000000000	0.0000000000000
0.35199999809265	0.99623579132556	-8.1367476427969	50.000000000000	0.0000000000000
0.35600000619888	0.99621545404487	-8.2268183513614	50.000000000000	0.0000000000000
0.36000001430511	0.99620405872206	-8.3170008669944	50.000000000000	0.0000000000000
0.36399999260902	0.99620142629670	-8.4073370365288	50.000000000000	0.0000000000000
0.36800000071526	0.99620790198503	-8.4978599689198	50.000000000000	0.0000000000000
0.37200000882149	0.99622336775311	-8.5886084296714	50.000000000000	0.0000000000000
0.37599998712540	0.99624747881941	-8.6796249795112	50.000000000000	0.0000000000000
0.37999999523163	0.99628054100746	-8.7709456942597	50.000000000000	0.0000000000000
0.38400000333786	0.99632225934304	-8.8626058751674	50.000000000000	0.0000000000000
0.38800001144409	0.99637235229081	-8.9546442990708	50.000000000000	0.0000000000000
0.39199998974800	0.99643071714920	-9.0470973624673	50.000000000000	0.0000000000000
0.39599999785423	0.99649706956857	-9.1399997265794	50.000000000000	0.0000000000000
0.40000000596046	0.99657112702532	-9.2333852888589	50.000000000000	0.0000000000000
0.40400001406670	0.99665248871056	-9.3272874474589	50.000000000000	0.0000000000000
0.40799999237061	0.99674081434864	-9.4217383197365	50.000000000000	0.0000000000000
0.41200000047684	0.99683564277946	-9.5167687247108	50.000000000000	0.0000000000000
0.41600000858307	0.99693661942776	-9.6124034213039	50.000000000000	0.0000000000000
0.41999998688698	0.99704316808741	-9.7086729681521	50.000000000000	0.0000000000000
0.42399999499321	0.99715488011508	-9.8056021534010	50.000000000000	0.0000000000000
0.42800000309944	0.99727120722597	-9.9032086472766	50.000000000000	0.0000000000000
0.43200001120567	0.99739157093304	-10.001519342991	50.000000000000	0.0000000000000
0.43599998950958	0.99751541337514	-10.100547260330	50.000000000000	0.0000000000000
0.43999999761581	0.99764214654461	-10.200314659754	50.000000000000	0.0000000000000
0.44400000572205	0.99777119372915	-10.300827416933	50.000000000000	0.0000000000000
0.44800001382828	0.99790183862147	-10.402104432533	50.000000000000	0.0000000000000
0.45199999213219	0.99803350290826	-10.504150405250	50.000000000000	0.0000000000000
0.45600000023842	0.99816562317251	-10.606974480288	50.000000000000	0.0000000000000
0.46000000834465	0.99829766861319	-10.710577002808	50.000000000000	0.0000000000000
0.46399998664856	0.99842852360733	-10.814964970920	50.000000000000	0.0000000000000
0.46799999475479	0.99855799630636	-10.920131300926	50.000000000000	0.0000000000000
0.47200000286102	0.99868543503321	-11.026076765139	50.000000000000	0.0000000000000
0.47600001096725	0.99881016575159	-11.132795726743	50.000000000000	0.0000000000000
0.47999998927116	0.99893137988240	-11.240279170574	50.000000000000	0.0000000000000
0.48399999737740	0.99904874155947	-11.348514759678	50.000000000000	0.0000000000000
0.48800000548363	0.99916136433492	-11.457489752652	50.000000000000	0.0000000000000
0.49200001358986	0.99926908814308	-11.567191146719	50.000000000000	0.0000000000000
0.49599999189377	0.99937107029934	-11.677602784739	50.000000000000	0.0000000000000
0.50000000000000	0.99946698232597	-11.788700136843	50.000000000000	0.0000000000000
0.50400000810623	0.99955615510704	-11.900466440086	50.000000000000	0.0000000000000
0.50800001621246	0.99963831943487	-12.012878630814	50.000000000000	0.0000000000000
0.51200002431870	0.99971282537330	-12.125910607621	50.000000000000	0.0000000000000
0.51599997282028	0.99977949823925	-12.239534159089	50.000000000000	0.0000000000000
0.51999998092651	0.99983787485572	-12.353726525728	50.000000000000	0.0000000000000
0.52399998903275	0.99988780602507	-12.468452445631	50.000000000000	0.0000000000000
0.52799999713898	0.99992886955609	-12.583686327542	50.000000000000	0.0000000000000
0.53200000524521	0.99996067492047	-12.699396237991	50.000000000000	0.0000000000000
0.53600001335144	0.99998324384037	-12.815547662554	50.000000000000	0.0000000000000
0.54000002145767	0.99999641882633	-12.932108409861	50.000000000000	0.0000000000000
0.54400002956390	0.99999998303893	-13.049048001254	50.000000000000	0.0000000000000
0.54799997806549	0.99999393036913	-13.166328824444	50.000000000000	0.0000000000000
0.55199998617172	0.99997821172509	-13.283919069763	50.000000000000	0.0000000000000
0.55599999427795	0.99995300176429	-13.401782979159	50.000000000000	0.0000000000000
0.56000000238419	0.99991812210116	-13.519889523877	50.000000000000	0.0000000000000
0.56400001049042	0.99987385658972	-13.638202163940	50.000000000000	0.0000000000000
0.56800001859665	0.99982032762346	-13.756690821370	50.000000000000	0.0000000000000
0.57200002670288	0.99975776160681	-13.875322073149	50.000000000000	0.0000000000000
0.57599997520447	0.99968637987421	-13.994062393586	50.000000000000	0.0000000000000
0.57999998331070	0.99960637356306	-14.112886440572	50.000000000000	0.0000000000000
0.58399999141693	0.99951825457226	-14.231758772990	50.000000000000	0.0000000000000
0.58799999952316	0.99942233907261	-14.350656190532	50.000000000000	0.0000000000000
0.59200000762939	0.99931890613473	-14.469547891086	50.000000000000	0.0000000000000
0.59600001573563	0.99920852093024	-14.588412714975	50.000000000000	0.0000000000000
0.60000002384186	0.99909161869886	-14.707228479214	50.000000000000	0.0000000000000
0.60399997234344	0.99896873888745	-14.825969379080	50.000000000000	0.0000000000000
0.60799998044968	0.99884052457332	-14.944619191319	50.000000000000	0.0000000000000
0.61199998855591	0.99870724774857	-15.063161752924	50.000000000000	0.0000000000000
0.61599999666214	0.99856966934450	-15.181580193804	50.000000000000	0.0000000000000
0.62000000476837	0.99842858704561	-15.299865515590	50.000000000000	0.0000000000000
0.62400001287460	0.99828426614324	-15.418000766097	50.000000000000	0.0000000000000
0.62800002098083	0.99813767937820	-15.535987707026	50.000000000000	0.0000000000000
0.63200002908707	0.99798931749340	-15.653817622739	50.000000000000	0.0000000000000
0.63599997758865	0.99783993987849	-15.771486068008	50.000000000000	0.0000000000000
0.63999998569489	0.99769016590532	-15.888997627070	50.000000000000	0.0000000000000
0.64399999380112	0.99754073017260	-16.006354702046	50.000000000000	0.0000000000000
0.64800000190735	0.99739224482313	-16.123559603664	50.000000000000	0.0000000000000
0.65200001001358	0.99724552014670	-16.240628876616	50.000000000000	0.0000000000000
0.65600001811981	0.99710105611324	-16.357566118215	50.000000000000	0.0000000000000
0.66000002622604	0.99695974890920	-16.474391185822	50.000000000000	0.0000000000000
0.66399997472763	0.99682204667139	-16.591120523939	50.000000000000	0.0000000000000
0.66799998283386	0.99668878531136	-16.707772669147	50.000000000000	0.0000000000000
0.67199999094009	0.99656051817743	-16.824370735164	50.000000000000	0.0000000000000
0.67599999904633	0.99643767926677	-16.940937946039	50.000000000000	0.0000000000000
0.68000000715256	0.99632118352749	-17.057505041562	50.000000000000	0.0000000000000
0.68400001525879	0.99621126235342	-17.174102017959	50.000000000000	0.0000000000000
0.68800002336502	0.99610859418952	-17.290759825798	50.000000000000	0.0000000000000
0.69199997186661	0.99601380513000	-17.407510134404	50.000000000000	0.0000000000000
0.69599997997284	0.99592698445634	-17.524399558960	50.000000000000	0.0000000000000
0.69999998807907	0.99584897831335	-17.641451964542	50.000000000000	0.0000000000000
0.70399999618530	0.99577983041022	-17.758714677023	50.000000000000	0.0000000000000
0.70800000429153	0.99572013855835	-17.876232061044	50.000000000000	0.0000000000000
0.71200001239777	0.99566992328594	-17.994044688394	50.000000000000	0.0000000000000
0.71600002050400	0.99562966335532	-18.112195435163	50.000000000000	0.0000000000000
0.72000002861023	0.99559942904647	-18.230731198744	50.000000000000	0.0000000000000
0.72399997711182	0.99557942964997	-18.349699930623	50.000000000000	0.0000000000000
0.72799998521805	0.99556972149299	-18.469143509262	50.000000000000	0.0000000000000
0.73199999332428	0.99557044340977	-18.589116775248	50.000000000000	0.0000000000000
0.73600000143051	0.99558155331342	-18.709663686625	50.000000000000	0.0000000000000
0.74000000953674	0.99560304494482	-18.830833068184	50.000000000000	0.0000000000000
0.74400001764297	0.99563476835250	-18.952669460231	50.000000000000	0.0000000000000
0.74800002574921	0.99567656344958	-19.075225050788	50.000000000000	0.0000000000000
0.75199997425079	0.99572835200503	-19.198543339057	50.000000000000	0.0000000000000
0.75599998235703	0.99578977198009	-19.322671883930	50.000000000000	0.0000000000000
0.75999999046326	0.99586054540167	-19.447660479092	50.000000000000	0.0000000000000
0.76399999856949	0.99594044520309	-19.573545412490	50.000000000000	0.0000000000000
0.76800000667572	0.99602902050177	-19.700376899692	50.000000000000	0.0000000000000
0.77200001478195	0.99612576855855	-19.828195668866	50.000000000000	0.0000000000000
0.77600002288818	0.99623039785047	-19.957034766761	50.000000000000	0.0000000000000
0.77999997138977	0.99634221632908	-20.086943213792	50.000000000000	0.0000000000000
0.78399997949600	0.99646071762626	-20.217948350517	50.000000000000	0.0000000000000
0.78799998760223	0.99658541772279	-20.350090195719	50.000000000000	0.0000000000000
0.79199999570847	0.99671554407628	-20.483402558094	50.000000000000	0.0000000000000
0.79600000381470	0.99685063432998	-20.617907590604	50.000000000000	0.0000000000000
0.80000001192093	0.99698990739355	-20.753636569640	50.000000000000	0.0000000000000
0.80400002002716	0.99713254639225	-20.890614786867	50.000000000000	0.0000000000000
0.80800002813339	0.99727820673829	-21.028861348292	50.000000000000	0.0000000000000
0.81199997663498	0.99742565037220	-21.168404526522	50.000000000000	0.0000000000000
0.81599998474121	0.99757456806636	-21.309248959072	50.000000000000	0.0000000000000
0.81999999284744	0.99772397645265	-21.451412918098	50.000000000000	0.0000000000000
0.82400000095367	0.99787317413141	-21.594908968290	50.000000000000	0.0000000000000
0.82800000905991	0.99802124231022	-21.739745975182	50.000000000000	0.0000000000000
0.83200001716614	0.99816770793445	-21.885923186704	50.000000000000	0.0000000000000
0.83600002527237	0.99831139174807	-22.033449249812	50.000000000000	0.0000000000000
0.83999997377396	0.99845188023854	-22.182323122002	50.000000000000	0.0000000000000
0.84399998188019	0.99858829462723	-22.332532903543	50.000000000000	0.0000000000000
0.84799998998642	0.99871973657377	-22.484082569215	50.000000000000	0.0000000000000
0.85199999809265	0.99884568128710	-22.636956735494	50.000000000000	0.0000000000000
0.85600000619888	0.99896553608442	-22.791140195833	50.000000000000	0.0000000000000
0.86000001430511	0.99907840073753	-22.946629364575	50.000000000000	0.0000000000000
0.86400002241135	0.99918357599800	-23.103395990461	50.000000000000	0.0000000000000
0.86799997091293	0.99928055447035	-23.261429878022	50.000000000000	0.0000000000000
0.87199997901917	0.99936875234992	-23.420702671351	50.000000000000	0.0000000000000
0.87599998712540	0.99944768372578	-23.581191416193	50.000000000000	0.0000000000000
0.87999999523163	0.99951655038065	-23.742875789962	50.000000000000	0.0000000000000
0.88400000333786	0.99957517455127	-23.905724014889	50.000000000000	0.0000000000000
0.88800001144409	0.99962301575020	-24.069700615578	50.000000000000	0.0000000000000
0.89200001955032	0.99965982470527	-24.234783534680	50.000000000000	0.0000000000000
0.89600002765656	0.99968499573310	-24.400939546660	50.000000000000	0.0000000000000
0.89999997615814	0.99969833355366	-24.568130680328	50.000000000000	0.0000000000000
0.90399998426437	0.99969975201197	-24.736325553495	50.000000000000	0.0000000000000
0.90799999237061	0.99968892131343	-24.905487988662	50.000000000000	0.0000000000000
0.91200000047684	0.99966571688968	-25.075583999067	50.000000000000	0.0000000000000
0.91600000858307	0.99963022287512	-25.246573972360	50.000000000000	0.0000000000000
0.92000001668930	0.99958211273646	-25.418425529649	50.000000000000	0.0000000000000
0.92400002479553	0.99952161416745	-25.591102586295	50.000000000000	0.0000000000000
0.92799997329712	0.99944904153027	-25.764564492159	50.000000000000	0.0000000000000
0.93199998140335	0.99936400504599	-25.938782261978	50.000000000000	0.0000000000000
0.93599998950958	0.99926711021797	-26.113712440575	50.000000000000	0.0000000000000
0.93999999761581	0.99915843175419	-26.289327897560	50.000000000000	0.0000000000000
