! TOUCHSTONE file generated by CST MICROWAVE STUDIO
! Date and time: Fri May  6 15:38:55 2022
! Project name: ant1_ceramic_sweep_fr4.cst
! Parameters = {e=0.035; h=1.6; i=0.8; l1=0.505; l2=20.96; ls=80; wl=1.7; ws=30}
! Header version: 2018
! Port assignment regex: !\s*Touchstone port\s*([0-9]+)\s*=\s*(CST MWS port|CST DS port)\s*([0-9]+|Zmin|Zmax)\s*\(\"(.*)\"\)(\s*mode\s*([0-9]+))?.*
! Touchstone port assignment:
! Touchstone port 1 = CST MWS port 1 ("")
# GHz S DB R 50
0                    -0.01448388              -0
0.004                -0.01447342      -0.0403815
0.008                -0.01443947     -0.08077178
0.012                -0.01438303      -0.1211796
0.016                -0.01430516      -0.1616137
0.02                 -0.01420427      -0.2020826
0.024                -0.01408243       -0.242595
0.028                -0.01393858      -0.2831592
0.032                -0.01377528      -0.3237835
0.036                -0.01358941      -0.3644758
0.04                 -0.01338559      -0.4052442
0.044                -0.01316328      -0.4460963
0.048                -0.01292089      -0.4870394
0.052                -0.01266148      -0.5280808
0.056                -0.01238502      -0.5692274
0.06                 -0.01209301      -0.6104856
0.064                -0.01178594      -0.6518617
0.068                -0.01146322      -0.6933616
0.072                -0.01112897      -0.7349908
0.076                 -0.0107826      -0.7767547
0.08                 -0.01042458      -0.8186578
0.084                -0.01005642      -0.8607046
0.088                 -0.0096796      -0.9028991
0.092                -0.00929511      -0.9452447
0.096               -0.008903924      -0.9877447
0.1                 -0.008508576       -1.030402
0.104               -0.008108487       -1.073218
0.108               -0.007706189       -1.116195
0.112               -0.007301105       -1.159335
0.116                -0.00689732       -1.202638
0.12                -0.006493224       -1.246104
0.124               -0.006092903       -1.289734
0.128               -0.005695785       -1.333527
0.132                -0.00530285       -1.377483
0.136               -0.004916122       -1.421598
0.14                -0.004536066       -1.465873
0.144               -0.004165226       -1.510304
0.148               -0.003803037        -1.55489
0.152               -0.003452567       -1.599626
0.156               -0.003114294       -1.644509
0.16                -0.002787147       -1.689535
0.164               -0.002475755         -1.7347
0.168               -0.002177501           -1.78
0.172               -0.001895984       -1.825428
0.176               -0.001630666       -1.870981
0.18                -0.001383084       -1.916651
0.184               -0.001154264       -1.962434
0.188              -0.0009431615       -2.008323
0.192              -0.0007539142       -2.054311
0.196              -0.0005829026       -2.100392
0.2                -0.0004337543       -2.146559
0.204              -0.0003075194       -2.192804
0.208              -0.0002011042       -2.239121
0.212              -0.0001160837       -2.285501
0.216              -5.507419e-05       -2.331937
0.22               -1.602948e-05       -2.378422
0.224              -5.376786e-07       -2.424947
0.228              -7.606121e-06       -2.471506
0.232               -3.77898e-05        -2.51809
0.236              -9.062022e-05       -2.564691
0.24                -0.000166149       -2.611301
0.244              -0.0002644257       -2.657914
0.248              -0.0003849961        -2.70452
0.252              -0.0005284334       -2.751113
0.256               -0.000691179       -2.797686
0.26               -0.0008769215        -2.84423
0.264               -0.001082624        -2.89074
0.268               -0.001308359       -2.937207
0.272               -0.001553159       -2.983625
0.276               -0.001817099       -3.029989
0.28                -0.002098694       -3.076291
0.284               -0.002397508       -3.122527
0.288               -0.002713091        -3.16869
0.292               -0.003042412       -3.214776
0.296               -0.003386065       -3.260778
0.3                  -0.00374412       -3.306694
0.304               -0.004112499       -3.352519
0.308               -0.004493869       -3.398249
0.312               -0.004883628        -3.44388
0.316               -0.005283395       -3.489411
0.32                -0.005689088       -3.534838
0.324               -0.006102315        -3.58016
0.328               -0.006521055       -3.625375
0.332               -0.006942768       -3.670482
0.336               -0.007366468       -3.715479
0.34                -0.007791144       -3.760369
0.344               -0.008216844        -3.80515
0.348               -0.008639957       -3.849823
0.352               -0.009062587        -3.89439
0.356               -0.009479044       -3.938852
0.36                -0.009890892       -3.983212
0.364                -0.01029658       -4.027473
0.368                -0.01069507       -4.071637
0.372                -0.01108376       -4.115707
0.376                -0.01146159        -4.15969
0.38                 -0.01183009       -4.203589
0.384                -0.01218458       -4.247407
0.388                -0.01252603       -4.291153
0.392                -0.01285285        -4.33483
0.396                -0.01316447       -4.378446
0.4                  -0.01345927       -4.422007
0.404                -0.01373667       -4.465519
0.408                -0.01399502        -4.50899
0.412                -0.01423478       -4.552427
0.416                 -0.0144548       -4.595838
0.42                 -0.01465447       -4.639233
0.424                -0.01483265       -4.682618
0.428                -0.01498923       -4.726003
0.432                -0.01512408       -4.769396
0.436                -0.01523555       -4.812806
0.44                   -0.015324       -4.856243
0.444                 -0.0153893       -4.899716
0.448                -0.01543186       -4.943234
0.452                -0.01545044       -4.986807
0.456                -0.01544442       -5.030443
0.46                 -0.01541569       -5.074154
0.464                -0.01536358       -5.117949
0.468                -0.01528794       -5.161836
0.472                -0.01518963       -5.205826
0.476                 -0.0150685       -5.249927
0.48                 -0.01492435        -5.29415
0.484                -0.01475807       -5.338502
0.488                -0.01457205       -5.382995
0.492                -0.01436459       -5.427634
0.496                -0.01413652       -5.472431
0.5                  -0.01388978       -5.517392
0.504                -0.01362312       -5.562526
0.508                   -0.01334       -5.607841
0.512                -0.01303974       -5.653343
0.516                -0.01272424       -5.699042
0.52                 -0.01239332       -5.744941
0.524                 -0.0120489       -5.791049
0.528                -0.01169183       -5.837372
0.532                -0.01132456       -5.883915
0.536                -0.01094586       -5.930684
0.54                 -0.01055875       -5.977681
0.544                -0.01016459       -6.024913
0.548               -0.009762754       -6.072382
0.552                -0.00935772       -6.120094
0.556               -0.008948355       -6.168049
0.56                -0.008536592       -6.216252
0.564               -0.008124404       -6.264702
0.568                -0.00771321       -6.313403
0.572                -0.00730345       -6.362354
0.576               -0.006897069       -6.411558
0.58                -0.006496087       -6.461012
0.584                -0.00609991       -6.510715
0.588               -0.005713093       -6.560669
0.592               -0.005334556       -6.610871
0.596               -0.004966348       -6.661317
0.6                 -0.004609949       -6.712007
0.604               -0.004267401       -6.762937
0.608               -0.003937129       -6.814103
0.612               -0.003623274       -6.865503
0.616               -0.003326354        -6.91713
0.62                 -0.00304635       -6.968981
0.624                -0.00278589        -7.02105
0.628               -0.002546051       -7.073331
0.632               -0.002325282       -7.125819
0.636               -0.002127798       -7.178508
0.64                 -0.00195314       -7.231389
0.644               -0.001800817       -7.284459
0.648               -0.001673539       -7.337707
0.652               -0.001571362       -7.391128
0.656               -0.001494413       -7.444713
0.66                -0.001443254       -7.498455
0.664                -0.00141908       -7.552345
0.668               -0.001420957       -7.606374
0.672               -0.001450571       -7.660535
0.676               -0.001508535        -7.71482
0.68                -0.001592919       -7.769221
0.684                -0.00170546       -7.823727
0.688               -0.001845777       -7.878329
0.692               -0.002013974       -7.933023
0.696               -0.002208178       -7.987795
0.7                 -0.002430607        -8.04264
0.704               -0.002680901       -8.097549
0.708               -0.002955594       -8.152512
0.712               -0.003257432       -8.207523
0.716               -0.003583982       -8.262574
0.72                -0.003935951       -8.317656
0.724               -0.004311373       -8.372763
0.728               -0.004710487       -8.427885
0.732               -0.005132305        -8.48302
0.736                -0.00557548       -8.538159
0.74                -0.006038064       -8.593294
0.744               -0.006521755       -8.648423
0.748               -0.007023072       -8.703537
0.752               -0.007541082       -8.758632
0.756               -0.008076428       -8.813704
0.76                -0.008626072        -8.86875
0.764               -0.009188064       -8.923764
0.768               -0.009764077       -8.978743
0.772                -0.01034993       -9.033687
0.776                -0.01094527       -9.088591
0.78                 -0.01154903       -9.143456
0.784                -0.01215819       -9.198278
0.788                -0.01277322        -9.25306
0.792                -0.01339161       -9.307799
0.796                -0.01401175       -9.362496
0.8                  -0.01463305       -9.417155
0.804                -0.01525293       -9.471776
0.808                -0.01587029       -9.526359
0.812                 -0.0164835        -9.58091
0.816                -0.01709187       -9.635433
0.82                 -0.01769282       -9.689928
0.824                -0.01828504       -9.744405
0.828                -0.01886848       -9.798865
0.832                -0.01943982       -9.853316
0.836                 -0.0199994       -9.907764
0.84                 -0.02054343       -9.962213
0.844                -0.02107367       -10.01668
0.848                -0.02158786       -10.07116
0.852                -0.02208367       -10.12566
0.856                -0.02256136       -10.18021
0.86                 -0.02301957        -10.2348
0.864                -0.02345646       -10.28944
0.868                -0.02387325       -10.34415
0.872                -0.02426594       -10.39893
0.876                -0.02463582        -10.4538
0.88                 -0.02498353       -10.50876
0.884                  -0.025306       -10.56383
0.888                -0.02560302       -10.61903
0.892                  -0.025874       -10.67435
0.896                -0.02612072       -10.72982
0.9                  -0.02634163       -10.78544
0.904                -0.02653584       -10.84123
0.908                -0.02670394       -10.89721
0.912                -0.02684651       -10.95337
0.916                -0.02696102       -11.00974
0.92                 -0.02705162       -11.06633
0.924                -0.02711633       -11.12315
0.928                -0.02715571       -11.18022
0.932                -0.02717032       -11.23754
0.936                -0.02716123       -11.29512
0.94                 -0.02712848       -11.35299
0.944                -0.02707315       -11.41115
0.948                 -0.0269953       -11.46961
0.952                -0.02689809       -11.52839
0.956                -0.02677997       -11.58749
0.96                 -0.02664309       -11.64693
0.964                -0.02648903       -11.70672
0.968                 -0.0263179       -11.76687
0.972                -0.02613243       -11.82738
0.976                -0.02593254       -11.88827
0.98                 -0.02572101       -11.94955
0.984                -0.02549844       -12.01121
0.988                -0.02526704       -12.07328
0.992                -0.02502801       -12.13576
0.996                -0.02478348       -12.19865
1                    -0.02453364       -12.26197
1.004                -0.02428182       -12.32571
1.008                -0.02403015       -12.38988
1.012                -0.02377947       -12.45449
1.016                -0.02353156       -12.51954
1.02                 -0.02328762       -12.58504
1.024                -0.02305211       -12.65098
1.028                -0.02282322       -12.71736
1.032                -0.02260642        -12.7842
1.036                -0.02240157       -12.85149
1.04                 -0.02221048       -12.91923
1.044                -0.02203512       -12.98742
1.048                -0.02187873       -13.05606
1.052                -0.02174119       -13.12513
1.056                -0.02162571       -13.19469
1.06                  -0.0215328       -13.26463
1.064                -0.02146519       -13.33506
1.068                -0.02142393       -13.40588
1.072                -0.02141122       -13.47716
1.076                -0.02142734       -13.54887
1.08                 -0.02147545       -13.62094
1.084                -0.02155528       -13.69348
1.088                -0.02166953       -13.76643
1.092                -0.02181915       -13.83976
1.096                 -0.0220049       -13.91347
1.1                  -0.02222885       -13.98756
1.104                -0.02249132       -14.06204
1.108                -0.02279215       -14.13687
1.112                -0.02313483       -14.21206
1.116                -0.02351761       -14.28763
1.12                 -0.02394257       -14.36352
1.124                -0.02441104       -14.43972
1.128                -0.02492161       -14.51627
1.132                -0.02547499       -14.59311
1.136                -0.02607209       -14.67026
1.14                  -0.0267138       -14.74769
1.144                -0.02739864       -14.82541
1.148                -0.02812705        -14.9034
1.152                -0.02889979       -14.98165
1.156                -0.02971569       -15.06014
1.16                 -0.03057486       -15.13888
1.164                -0.03147602       -15.21786
1.168                -0.03241971       -15.29705
1.172                 -0.0334044       -15.37646
1.176                -0.03443087       -15.45607
1.18                 -0.03549643       -15.53588
1.184                -0.03660061       -15.61588
1.188                -0.03774224       -15.69606
1.192                -0.03892129       -15.77642
1.196                 -0.0401361       -15.85695
1.2                  -0.04138429       -15.93763
1.204                -0.04266672       -16.01848
1.208                -0.04397908       -16.09948
1.212                -0.04532245       -16.18062
1.216                -0.04669333       -16.26191
1.22                 -0.04809093       -16.34334
1.224                -0.04951397       -16.42491
1.228                -0.05096082       -16.50662
1.232                -0.05242718       -16.58846
1.236                -0.05391499       -16.67045
1.24                  -0.0554201       -16.75257
1.244                -0.05694058       -16.83482
1.248                -0.05847577       -16.91723
1.252                -0.06002272       -16.99977
1.256                -0.06157963       -17.08247
1.26                 -0.06314454       -17.16532
1.264                -0.06471655       -17.24833
1.268                -0.06629154        -17.3315
1.272                -0.06787059       -17.41485
1.276                  -0.069449       -17.49838
1.28                 -0.07102766       -17.58211
1.284                 -0.0726017       -17.66603
1.288                -0.07417223       -17.75017
1.292                -0.07573526       -17.83452
1.296                  -0.077291       -17.91912
1.3                  -0.07883651       -18.00396
1.304                -0.08037146       -18.08907
1.308                -0.08189338       -18.17445
1.312                -0.08340144       -18.26012
1.316                -0.08489427       -18.34611
1.32                 -0.08637176       -18.43242
1.324                -0.08783078       -18.51907
1.328                -0.08927259       -18.60608
1.332                -0.09069403       -18.69347
1.336                -0.09209663       -18.78126
1.34                 -0.09347837       -18.86947
1.344                -0.09483932       -18.95811
1.348                -0.09617982       -19.04721
1.352                -0.09749818       -19.13679
1.356                -0.09879484       -19.22687
1.36                   -0.100071       -19.31747
1.364                 -0.1013255       -19.40861
1.368                 -0.1025594       -19.50031
1.372                 -0.1037719       -19.59261
1.376                 -0.1049652        -19.6855
1.38                    -0.10614       -19.77903
1.384                 -0.1072956       -19.87321
1.388                 -0.1084364       -19.96806
1.392                 -0.1095598       -20.06361
1.396                 -0.1106691       -20.15987
1.4                   -0.1117649       -20.25688
1.404                 -0.1128511       -20.35464
1.408                 -0.1139265       -20.45318
1.412                 -0.1149948       -20.55253
1.416                 -0.1160568       -20.65269
1.42                  -0.1171161       -20.75369
1.424                 -0.1181743       -20.85556
1.428                 -0.1192332       -20.95831
1.432                 -0.1202972       -21.06195
1.436                 -0.1213662        -21.1665
1.44                  -0.1224444       -21.27199
1.444                 -0.1235364       -21.37843
1.448                 -0.1246417       -21.48582
1.452                  -0.125765        -21.5942
1.456                 -0.1269105       -21.70357
1.46                  -0.1280795       -21.81395
1.464                 -0.1292763       -21.92534
1.468                 -0.1305033       -22.03776
1.472                 -0.1317655       -22.15123
1.476                 -0.1330653       -22.26574
1.48                  -0.1344054       -22.38132
1.484                 -0.1357907       -22.49796
1.488                 -0.1372238       -22.61568
1.492                  -0.138708       -22.73448
1.496                 -0.1402476       -22.85437
1.5                   -0.1418454       -22.97535
1.504                 -0.1435065       -23.09743
1.508                 -0.1452318       -23.22061
1.512                 -0.1470264       -23.34489
1.516                 -0.1488952       -23.47027
1.52                  -0.1508386       -23.59676
1.524                 -0.1528613       -23.72434
1.528                 -0.1549667       -23.85304
1.532                  -0.157158       -23.98283
1.536                 -0.1594381       -24.11371
1.54                  -0.1618112        -24.2457
1.544                 -0.1642787       -24.37877
1.548                 -0.1668449       -24.51293
1.552                 -0.1695112       -24.64816
1.556                 -0.1722819       -24.78447
1.56                  -0.1751584       -24.92185
1.564                 -0.1781448        -25.0603
1.568                 -0.1812407       -25.19979
1.572                 -0.1844519       -25.34033
1.576                  -0.187777       -25.48191
1.58                   -0.191221       -25.62452
1.584                  -0.194784       -25.76816
1.588                 -0.1984696       -25.91281
